读取内部参数
80 03 02 00 00 04 5B A0
80 06 08 06 AB 56 8A EB 
80 03 08 00 80 00 02 00 01 00 10 90 ED 

密钥命令
80 06 08 06 AB 56 8A B4
80 06 02 00 00 01 8A B4

波特率
80 06 08 06 AB 56 8A B4 80 06 02 01 00 00 06 63

偶校验
80 06 02 02 00 00 37 A3
80 06 02 02 00 01 F6 63

80 03 00 00 00 08 5A 1D

80 06 02 00 00 01


1000000000000110000000100000001000000000000000000000000000000000
1100000000000101
 1000000000000110
 1100000000000101
  1000000000000110
  1100000000000101
   1000000000000110
   1100000000000101
    1000000000000110
    1100000000000101
     1000000000000110
     1100000000000101
      1000000000000110
      1100000000000101
       1000000000000111
       1100000000000101
        1000000000000100
	1100000000000101
	 1000000000000010
	 1100000000000101
	  1000000000001110
	  1100000000000101
	   1000000000010110
	   1100000000000101
	    1000000000100110
	    1100000000000101
	     1000000001000110
	     1100000000000101
	      1000000010000110
	      1100000000000101
	       1000000100000111
	       1100000000000101
	        1000001000000100
		1100000000000101
		 1000010000000010
		 1100000000000101
		  1000100000001110
		  1100000000000101
		   1001000000010110
		   1100000000000101
		    1010000000100110
		    1100000000000101
		     1100000001000110
		     1100000000000101
		              1000011000000000
			      1100000000000101
			       1000110000001010
			       1100000000000101
			        1001100000011110
				1100000000000101
				 1011000000110110
				 1100000000000101
				  1110000001100110
				  1100000000000101
				    1000000110001100
				    1100000000000101
				     1000001100010010
				     1100000000000101
				      1000011000101110
				      1100000000000101
				       1000110001010110
				       1100000000000101
				        1001100010100110
					1100000000000101
					 1011000101000110
					 1100000000000101
					  1110001010000110
					  1100000000000101
					    1000101000001100
					    1100000000000101
					     1001010000010010
					     1100000000000101
					      1010100000101110
					      1100000000000101
					       1101000001010110
					       1100000000000101
					          10 0000 1010 0110
				  

