【1】向集线器发命令：

主机查询命令
80 03 00 00 00 08 5A 1D

读取内部参数
80 03 02 00 00 04 5B A0

密钥命令（修改参数时都要先发密钥命令）
80 06 08 06 AB 56 8A B4

无校验
80 06 02 02 00 00 37 A3

奇校验
80 06 02 02 00 01 F6 63

偶校验
80 06 02 02 00 02 B6 62

注意：发命令时要计算校验位，即最后两字节，而且是低8位在前，高8位在后。


【2】
集线器：1个起始位 + 8个数据位 + 2个停止位 = 11bit
单片机：1个起始位 + 9个数据位 + 1个停止位 = 11bit
这里的9个数据位和偶校验的设置为：
	SCI0CR1 = 0x12;        //设置SCI1为正常模式，9位数据位，一个偶校验

【3】
集线器和单片机的连接用交叉线

【4】
Comm.exe和XCOM V2.0.exe会锁定串口，只有断开了才可以运行别的。

【5】
接收的数据有正负只分，要判断。
